T3FB8 000:005.726   SEGGER J-Link V6.70e Log File
T3FB8 000:005.965   DLL Compiled: Apr 17 2020 17:55:05
T3FB8 000:005.994   Logging started @ 2020-12-09 06:38
T3FB8 000:006.027 JLINK_SetWarnOutHandler(...)
T3FB8 000:006.056 - 0.058ms
T3FB8 000:006.154 JLINK_OpenEx(...)
T3FB8 000:010.057   Firmware: J-Link ARM V8 compiled Nov 28 2014 13:44:46
T3FB8 000:014.590   Hardware: V8.00
T3FB8 000:014.665   S/N: 788594195
T3FB8 000:014.709   OEM: SEGGER
T3FB8 000:014.757   Feature(s): RDI,FlashDL,FlashBP,JFlash,GDB
T3FB8 000:017.118   TELNET listener socket opened on port 19021
T3FB8 000:017.235   WEBSRV Starting webserver
T3FB8 000:017.445   WEBSRV Webserver running on local port 19080
T3FB8 000:017.497 - 11.359ms returns "O.K."
T3FB8 000:017.541 JLINK_GetEmuCaps()
T3FB8 000:017.572 - 0.045ms returns 0xB9FF7BBF
T3FB8 000:017.606 JLINK_TIF_GetAvailable(...)
T3FB8 000:018.032 - 0.454ms
T3FB8 000:018.082 JLINK_SetErrorOutHandler(...)
T3FB8 000:018.111 - 0.044ms
T3FB8 000:018.164 JLINK_ExecCommand("ProjectFile = "E:\Works\Product\二代LORA SX126X\LSD4RFC-2L722N10\LLCC68资料包\RL系列LoRa模组资料包_201207\参考例程\LLCC68_CAD(1.3OLED)_201209\MDK-ARM\JLinkSettings.ini"", ...). 
T3FB8 000:036.159 - 18.035ms returns 0x00
T3FB8 000:040.558 JLINK_ExecCommand("Device = STM32L476VGTx", ...). 
T3FB8 000:044.523   Device "STM32L476VG" selected.
T3FB8 000:045.361 - 4.759ms returns 0x00
T3FB8 000:045.404 JLINK_ExecCommand("DisableConnectionTimeout", ...). 
T3FB8 000:045.435 - 0.016ms returns 0x01
T3FB8 000:045.463 JLINK_GetHardwareVersion()
T3FB8 000:045.489 - 0.038ms returns 0x13880
T3FB8 000:045.517 JLINK_GetDLLVersion()  returns 67005
T3FB8 000:045.549 JLINK_GetFirmwareString(...)
T3FB8 000:045.575 - 0.038ms
T3FB8 000:055.836 JLINK_GetDLLVersion()  returns 67005
T3FB8 000:055.888 JLINK_GetCompileDateTime()
T3FB8 000:055.914 - 0.038ms
T3FB8 000:058.910 JLINK_GetFirmwareString(...)
T3FB8 000:058.961 - 0.064ms
T3FB8 000:061.008 JLINK_GetHardwareVersion()
T3FB8 000:061.050 - 0.055ms returns 0x13880
T3FB8 000:070.843 JLINK_TIF_Select(JLINKARM_TIF_SWD)
T3FB8 000:072.652 - 1.832ms returns 0x00
T3FB8 000:072.972 JLINK_SetSpeed(5000)
T3FB8 000:073.323 - 0.367ms
T3FB8 000:073.356 JLINK_GetId()
T3FB8 000:077.443   Found SW-DP with ID 0x2BA01477
T3FB8 000:140.968   Found SW-DP with ID 0x2BA01477
T3FB8 000:148.920   Old FW that does not support reading DPIDR via DAP jobs
T3FB8 000:159.116   Unknown DP version. Assuming DPv0
T3FB8 000:164.633   Scanning AP map to find all available APs
T3FB8 000:172.718   AP[1]: Stopped AP scan as end of AP map has been reached
T3FB8 000:174.914   AP[0]: AHB-AP (IDR: 0x24770011)
T3FB8 000:179.704   Iterating through AP map to find AHB-AP to use
T3FB8 000:189.940   AP[0]: Core found
T3FB8 000:195.588   AP[0]: AHB-AP ROM base: 0xE00FF000
T3FB8 000:202.657   CPUID register: 0x410FC241. Implementer code: 0x41 (ARM)
T3FB8 000:205.142   Found Cortex-M4 r0p1, Little endian.
T3FB8 000:307.977    -- Max. mem block: 0x00002408
T3FB8 000:308.059   CPU_ReadMem(4 bytes @ 0xE000EDF0)
T3FB8 000:310.731   CPU_ReadMem(4 bytes @ 0xE0002000)
T3FB8 000:314.045   FPUnit: 6 code (BP) slots and 2 literal slots
T3FB8 000:314.112   CPU_ReadMem(4 bytes @ 0xE000EDFC)
T3FB8 000:315.014   CPU_WriteMem(4 bytes @ 0xE000EDFC)
T3FB8 000:315.962   CPU_ReadMem(4 bytes @ 0xE0001000)
T3FB8 000:316.660   CPU_WriteMem(4 bytes @ 0xE0001000)
T3FB8 000:317.279   CPU_ReadMem(4 bytes @ 0xE000ED88)
T3FB8 000:317.887   CPU_WriteMem(4 bytes @ 0xE000ED88)
T3FB8 000:318.522   CPU_ReadMem(4 bytes @ 0xE000ED88)
T3FB8 000:319.135   CPU_WriteMem(4 bytes @ 0xE000ED88)
T3FB8 000:322.214   CoreSight components:
T3FB8 000:323.988   ROMTbl[0] @ E00FF000
T3FB8 000:324.055   CPU_ReadMem(64 bytes @ 0xE00FF000)
T3FB8 000:325.430   CPU_ReadMem(32 bytes @ 0xE000EFE0)
T3FB8 000:328.332   ROMTbl[0][0]: E000E000, CID: B105E00D, PID: 000BB00C SCS-M7
T3FB8 000:328.383   CPU_ReadMem(32 bytes @ 0xE0001FE0)
T3FB8 000:331.030   ROMTbl[0][1]: E0001000, CID: B105E00D, PID: 003BB002 DWT
T3FB8 000:331.080   CPU_ReadMem(32 bytes @ 0xE0002FE0)
T3FB8 000:333.938   ROMTbl[0][2]: E0002000, CID: B105E00D, PID: 002BB003 FPB
T3FB8 000:334.019   CPU_ReadMem(32 bytes @ 0xE0000FE0)
T3FB8 000:339.604   ROMTbl[0][3]: E0000000, CID: B105E00D, PID: 003BB001 ITM
T3FB8 000:339.686   CPU_ReadMem(32 bytes @ 0xE0040FE0)
T3FB8 000:343.026   ROMTbl[0][4]: E0040000, CID: B105900D, PID: 000BB9A1 TPIU
T3FB8 000:343.094   CPU_ReadMem(32 bytes @ 0xE0041FE0)
T3FB8 000:347.556   ROMTbl[0][5]: E0041000, CID: B105900D, PID: 000BB925 ETM
T3FB8 000:348.659 - 275.323ms   returns 0x2BA01477
T3FB8 000:348.699 JLINK_GetDLLVersion()  returns 67005
T3FB8 000:348.727 JLINK_CORE_GetFound()
T3FB8 000:348.753 - 0.038ms returns 0xE0000FF
T3FB8 000:348.781 JLINK_GetDebugInfo(0x100 = JLINKARM_ROM_TABLE_ADDR_INDEX)
T3FB8 000:348.811   Value=0xE00FF000
T3FB8 000:348.849 - 0.080ms returns 0x00
T3FB8 000:351.276 JLINK_GetDebugInfo(0x100 = JLINKARM_ROM_TABLE_ADDR_INDEX)
T3FB8 000:351.324   Value=0xE00FF000
T3FB8 000:351.368 - 0.106ms returns 0x00
T3FB8 000:351.397 JLINK_GetDebugInfo(0x101 = JLINKARM_DEBUG_INFO_ETM_ADDR_INDEX)
T3FB8 000:351.423   Value=0xE0041000
T3FB8 000:351.461 - 0.076ms returns 0x00
T3FB8 000:351.709   JLINK_ReadMemEx(0xE0041FD0, 0x0020 Bytes, ..., Flags = 0x02000004)
T3FB8 000:352.023   CPU_ReadMem(32 bytes @ 0xE0041FD0)
T3FB8 000:353.388   Data:  04 00 00 00 00 00 00 00 00 00 00 00 00 00 00 00 ...
T3FB8 000:353.431 - 1.947ms returns 0x20
T3FB8 000:353.459 JLINK_GetDebugInfo(0x102 = JLINKARM_DEBUG_INFO_MTB_ADDR_INDEX)
T3FB8 000:353.486   Value=0x00000000
T3FB8 000:353.524 - 0.077ms returns 0x00
T3FB8 000:353.550 JLINK_GetDebugInfo(0x103 = JLINKARM_DEBUG_INFO_TPIU_ADDR_INDEX)
T3FB8 000:353.576   Value=0xE0040000
T3FB8 000:353.614 - 0.076ms returns 0x00
T3FB8 000:353.640 JLINK_GetDebugInfo(0x104 = JLINKARM_DEBUG_INFO_ITM_ADDR_INDEX)
T3FB8 000:353.666   Value=0xE0000000
T3FB8 000:353.703 - 0.076ms returns 0x00
T3FB8 000:353.730 JLINK_GetDebugInfo(0x105 = JLINKARM_DEBUG_INFO_DWT_ADDR_INDEX)
T3FB8 000:353.755   Value=0xE0001000
T3FB8 000:353.793 - 0.076ms returns 0x00
T3FB8 000:353.820 JLINK_GetDebugInfo(0x106 = JLINKARM_DEBUG_INFO_FPB_ADDR_INDEX)
T3FB8 000:353.846   Value=0xE0002000
T3FB8 000:353.883 - 0.076ms returns 0x00
T3FB8 000:353.909 JLINK_GetDebugInfo(0x107 = JLINKARM_DEBUG_INFO_NVIC_ADDR_INDEX)
T3FB8 000:353.935   Value=0xE000E000
T3FB8 000:353.973 - 0.076ms returns 0x00
T3FB8 000:353.999 JLINK_GetDebugInfo(0x10C = JLINKARM_DEBUG_INFO_DBG_ADDR_INDEX)
T3FB8 000:354.025   Value=0xE000EDF0
T3FB8 000:354.062 - 0.076ms returns 0x00
T3FB8 000:354.089 JLINK_GetDebugInfo(0x01 = Unknown)
T3FB8 000:354.118   Value=0x00000001
T3FB8 000:354.156 - 0.080ms returns 0x00
T3FB8 000:354.186 JLINK_ReadMemU32(0xE000ED00, 0x0001 Items, ...)
T3FB8 000:354.217   CPU_ReadMem(4 bytes @ 0xE000ED00)
T3FB8 000:354.963   Data:  41 C2 0F 41
T3FB8 000:355.212    - CPUID
T3FB8 000:355.254 - 1.080ms returns 1
T3FB8 000:355.281 JLINK_GetDebugInfo(0x10F = JLINKARM_DEBUG_INFO_HAS_CORTEX_M_SECURITY_EXT_INDEX)
T3FB8 000:355.307   Value=0x00000000
T3FB8 000:355.345 - 0.076ms returns 0x00
T3FB8 000:355.376 JLINK_SetResetType(JLINKARM_CM3_RESET_TYPE_NORMAL)
T3FB8 000:355.408 - 0.047ms returns JLINKARM_CM3_RESET_TYPE_NORMAL
T3FB8 000:355.439 JLINK_Reset()
T3FB8 000:356.326   CPU is running
T3FB8 000:356.398   CPU_WriteMem(4 bytes @ 0xE000EDF0)
T3FB8 000:357.225   CPU is running
T3FB8 000:357.286   CPU_WriteMem(4 bytes @ 0xE000EDFC)
T3FB8 000:360.273   Reset: Halt core after reset via DEMCR.VC_CORERESET.
T3FB8 000:366.830   Reset: Reset device via AIRCR.SYSRESETREQ.
T3FB8 000:366.897   CPU is running
T3FB8 000:366.940   CPU_WriteMem(4 bytes @ 0xE000ED0C)
T3FB8 000:421.104   CPU_ReadMem(4 bytes @ 0xE000EDF0)
T3FB8 000:421.773   CPU_ReadMem(4 bytes @ 0xE000EDF0)
T3FB8 000:422.504   CPU is running
T3FB8 000:422.552   CPU_WriteMem(4 bytes @ 0xE000EDF0)
T3FB8 000:423.256   CPU is running
T3FB8 000:423.323   CPU_WriteMem(4 bytes @ 0xE000EDFC)
T3FB8 000:429.149   CPU_ReadMem(4 bytes @ 0xE000EDF0)
T3FB8 000:432.697   CPU_WriteMem(4 bytes @ 0xE0002000)
T3FB8 000:433.372   CPU_ReadMem(4 bytes @ 0xE000EDFC)
T3FB8 000:433.999   CPU_ReadMem(4 bytes @ 0xE0001000)
T3FB8 000:434.762 - 79.342ms
T3FB8 000:434.802 JLINK_Halt()
T3FB8 000:434.828 - 0.039ms returns 0x00
T3FB8 000:434.856 JLINK_ReadMemU32(0xE000EDF0, 0x0001 Items, ...)
T3FB8 000:434.889   CPU_ReadMem(4 bytes @ 0xE000EDF0)
T3FB8 000:435.556   Data:  03 00 03 00
T3FB8 000:435.602    - DHCSR
T3FB8 000:435.640 - 0.795ms returns 1
T3FB8 000:435.669 JLINK_WriteU32(0xE000EDF0, 0xA05F0003)
T3FB8 000:435.696    - DHCSR
T3FB8 000:435.747   CPU_WriteMem(4 bytes @ 0xE000EDF0)
T3FB8 000:436.468 - 0.817ms returns 0
T3FB8 000:436.504 JLINK_WriteU32(0xE000EDFC, 0x01000000)
T3FB8 000:436.531    - DEMCR
T3FB8 000:436.574   CPU_WriteMem(4 bytes @ 0xE000EDFC)
T3FB8 000:437.343 - 0.857ms returns 0
T3FB8 000:448.162 JLINK_GetHWStatus(...)
T3FB8 000:448.707 - 0.564ms returns 0x00
T3FB8 000:453.728 JLINK_GetNumBPUnits(Type = 0xFFFFFF00)
T3FB8 000:453.779 - 0.063ms returns 0x06
T3FB8 000:453.806 JLINK_GetNumBPUnits(Type = 0xF0)
T3FB8 000:453.831 - 0.037ms returns 0x2000
T3FB8 000:453.857 JLINK_GetNumWPUnits()
T3FB8 000:453.881 - 0.037ms returns 0x04
T3FB8 000:458.777 JLINK_GetSpeed()
T3FB8 000:458.827 - 0.062ms returns 0xFA0
T3FB8 000:464.997 JLINK_ReadMemU32(0xE000E004, 0x0001 Items, ...)
T3FB8 000:465.074   CPU_ReadMem(4 bytes @ 0xE000E004)
T3FB8 000:465.705   Data:  02 00 00 00
T3FB8 000:465.751 - 0.767ms returns 1
T3FB8 000:465.781 JLINK_ReadMemU32(0xE000E004, 0x0001 Items, ...)
T3FB8 000:465.812   CPU_ReadMem(4 bytes @ 0xE000E004)
T3FB8 000:466.506   Data:  02 00 00 00
T3FB8 000:466.553 - 0.784ms returns 1
T3FB8 000:466.581 JLINK_WriteMemEx(0xE0001000, 0x001C Bytes, ..., Flags = 0x02000004)
T3FB8 000:466.608   Data:  01 00 00 00 00 00 00 00 00 00 00 00 00 00 00 00 ...
T3FB8 000:467.589   CPU_WriteMem(28 bytes @ 0xE0001000)
T3FB8 000:468.483 - 1.921ms returns 0x1C
T3FB8 000:468.523 JLINK_Halt()
T3FB8 000:468.549 - 0.039ms returns 0x00
T3FB8 000:468.576 JLINK_IsHalted()
T3FB8 000:468.602 - 0.039ms returns TRUE
T3FB8 000:473.245 JLINK_WriteMem(0x20000000, 0x01BC Bytes, ...)
T3FB8 000:473.298   Data:  00 BE 0A E0 0D 78 2D 06 68 40 08 24 40 00 00 D3 ...
T3FB8 000:473.775   CPU_WriteMem(444 bytes @ 0x20000000)
T3FB8 000:477.173 - 3.961ms returns 0x1BC
T3FB8 000:477.256 JLINK_WriteReg(R0, 0x08000000)
T3FB8 000:477.288 - 0.045ms returns 0x00
T3FB8 000:477.315 JLINK_WriteReg(R1, 0x003D0900)
T3FB8 000:477.341 - 0.039ms returns 0x00
T3FB8 000:477.368 JLINK_WriteReg(R2, 0x00000001)
T3FB8 000:477.394 - 0.039ms returns 0x00
T3FB8 000:477.420 JLINK_WriteReg(R3, 0x00000000)
T3FB8 000:477.446 - 0.039ms returns 0x00
T3FB8 000:477.473 JLINK_WriteReg(R4, 0x00000000)
T3FB8 000:477.499 - 0.039ms returns 0x00
T3FB8 000:477.525 JLINK_WriteReg(R5, 0x00000000)
T3FB8 000:477.551 - 0.038ms returns 0x00
T3FB8 000:477.578 JLINK_WriteReg(R6, 0x00000000)
T3FB8 000:477.603 - 0.038ms returns 0x00
T3FB8 000:477.630 JLINK_WriteReg(R7, 0x00000000)
T3FB8 000:477.656 - 0.038ms returns 0x00
T3FB8 000:477.683 JLINK_WriteReg(R8, 0x00000000)
T3FB8 000:477.709 - 0.039ms returns 0x00
T3FB8 000:477.735 JLINK_WriteReg(R9, 0x200001B8)
T3FB8 000:477.762 - 0.039ms returns 0x00
T3FB8 000:477.788 JLINK_WriteReg(R10, 0x00000000)
T3FB8 000:477.814 - 0.039ms returns 0x00
T3FB8 000:477.841 JLINK_WriteReg(R11, 0x00000000)
T3FB8 000:477.867 - 0.039ms returns 0x00
T3FB8 000:477.894 JLINK_WriteReg(R12, 0x00000000)
T3FB8 000:477.920 - 0.039ms returns 0x00
T3FB8 000:477.946 JLINK_WriteReg(R13 (SP), 0x20000800)
T3FB8 000:477.973 - 0.040ms returns 0x00
T3FB8 000:478.003 JLINK_WriteReg(R14, 0x20000001)
T3FB8 000:478.030 - 0.040ms returns 0x00
T3FB8 000:478.057 JLINK_WriteReg(R15 (PC), 0x20000086)
T3FB8 000:478.083 - 0.038ms returns 0x00
T3FB8 000:478.109 JLINK_WriteReg(XPSR, 0x01000000)
T3FB8 000:478.136 - 0.039ms returns 0x00
T3FB8 000:478.162 JLINK_WriteReg(MSP, 0x20000800)
T3FB8 000:478.189 - 0.039ms returns 0x00
T3FB8 000:478.215 JLINK_WriteReg(PSP, 0x20000800)
T3FB8 000:478.241 - 0.039ms returns 0x00
T3FB8 000:478.268 JLINK_WriteReg(CFBP, 0x00000000)
T3FB8 000:478.298 - 0.042ms returns 0x00
T3FB8 000:478.326   JLINK_SetBPEx(Addr = 0x20000000, Type = 0xFFFFFFF2)
T3FB8 000:478.370   CPU_ReadMem(2 bytes @ 0x20000000)
T3FB8 000:479.041 - 0.742ms returns 0x00000001
T3FB8 000:479.084 JLINK_Go()
T3FB8 000:479.114   CPU_WriteMem(2 bytes @ 0x20000000)
T3FB8 000:479.813   CPU_ReadMem(4 bytes @ 0xE0001000)
T3FB8 000:480.647   CPU_WriteMem(4 bytes @ 0xE0002008)
T3FB8 000:480.695   CPU_WriteMem(4 bytes @ 0xE000200C)
T3FB8 000:480.734   CPU_WriteMem(4 bytes @ 0xE0002010)
T3FB8 000:480.771   CPU_WriteMem(4 bytes @ 0xE0002014)
T3FB8 000:480.809   CPU_WriteMem(4 bytes @ 0xE0002018)
T3FB8 000:480.847   CPU_WriteMem(4 bytes @ 0xE000201C)
T3FB8 000:483.093   CPU_WriteMem(4 bytes @ 0xE0001004)
T3FB8 000:486.745 - 7.681ms
T3FB8 000:486.782 JLINK_IsHalted()
T3FB8 000:489.921   CPU_ReadMem(2 bytes @ 0x20000000)
T3FB8 000:490.525 - 3.775ms returns TRUE
T3FB8 000:490.581 JLINK_ReadReg(R15 (PC))
T3FB8 000:490.613 - 0.044ms returns 0x20000000
T3FB8 000:490.641 JLINK_ClrBPEx(BPHandle = 0x00000001)
T3FB8 000:490.668 - 0.040ms returns 0x00
T3FB8 000:490.696 JLINK_ReadReg(R0)
T3FB8 000:490.722 - 0.039ms returns 0x00000000
T3FB8 000:491.128 JLINK_WriteReg(R0, 0x08000000)
T3FB8 000:491.167 - 0.051ms returns 0x00
T3FB8 000:491.194 JLINK_WriteReg(R1, 0x00000800)
T3FB8 000:491.220 - 0.039ms returns 0x00
T3FB8 000:491.246 JLINK_WriteReg(R2, 0x000000FF)
T3FB8 000:491.273 - 0.038ms returns 0x00
T3FB8 000:491.299 JLINK_WriteReg(R3, 0x00000000)
T3FB8 000:491.325 - 0.038ms returns 0x00
T3FB8 000:491.351 JLINK_WriteReg(R4, 0x00000000)
T3FB8 000:491.377 - 0.038ms returns 0x00
T3FB8 000:491.403 JLINK_WriteReg(R5, 0x00000000)
T3FB8 000:491.430 - 0.038ms returns 0x00
T3FB8 000:491.456 JLINK_WriteReg(R6, 0x00000000)
T3FB8 000:491.482 - 0.039ms returns 0x00
T3FB8 000:491.508 JLINK_WriteReg(R7, 0x00000000)
T3FB8 000:491.534 - 0.038ms returns 0x00
T3FB8 000:491.561 JLINK_WriteReg(R8, 0x00000000)
T3FB8 000:491.587 - 0.038ms returns 0x00
T3FB8 000:491.613 JLINK_WriteReg(R9, 0x200001B8)
T3FB8 000:491.639 - 0.039ms returns 0x00
T3FB8 000:491.666 JLINK_WriteReg(R10, 0x00000000)
T3FB8 000:491.692 - 0.038ms returns 0x00
T3FB8 000:491.718 JLINK_WriteReg(R11, 0x00000000)
T3FB8 000:491.744 - 0.039ms returns 0x00
T3FB8 000:491.771 JLINK_WriteReg(R12, 0x00000000)
T3FB8 000:491.797 - 0.039ms returns 0x00
T3FB8 000:491.823 JLINK_WriteReg(R13 (SP), 0x20000800)
T3FB8 000:491.850 - 0.039ms returns 0x00
T3FB8 000:491.876 JLINK_WriteReg(R14, 0x20000001)
T3FB8 000:491.902 - 0.039ms returns 0x00
T3FB8 000:491.929 JLINK_WriteReg(R15 (PC), 0x200000BC)
T3FB8 000:491.955 - 0.040ms returns 0x00
T3FB8 000:491.983 JLINK_WriteReg(XPSR, 0x01000000)
T3FB8 000:492.009 - 0.039ms returns 0x00
T3FB8 000:492.036 JLINK_WriteReg(MSP, 0x20000800)
T3FB8 000:492.062 - 0.038ms returns 0x00
T3FB8 000:492.088 JLINK_WriteReg(PSP, 0x20000800)
T3FB8 000:492.114 - 0.039ms returns 0x00
T3FB8 000:492.141 JLINK_WriteReg(CFBP, 0x00000000)
T3FB8 000:492.167 - 0.038ms returns 0x00
T3FB8 000:492.194   JLINK_SetBPEx(Addr = 0x20000000, Type = 0xFFFFFFF2)
T3FB8 000:492.233 - 0.052ms returns 0x00000002
T3FB8 000:492.260 JLINK_Go()
T3FB8 000:492.294   CPU_ReadMem(4 bytes @ 0xE0001000)
T3FB8 000:495.366 - 3.129ms
T3FB8 000:495.407 JLINK_IsHalted()
T3FB8 000:498.180   CPU_ReadMem(2 bytes @ 0x20000000)
T3FB8 000:498.824 - 3.436ms returns TRUE
T3FB8 000:498.860 JLINK_ReadReg(R15 (PC))
T3FB8 000:498.889 - 0.042ms returns 0x20000000
T3FB8 000:498.916 JLINK_ClrBPEx(BPHandle = 0x00000002)
T3FB8 000:498.943 - 0.043ms returns 0x00
T3FB8 000:498.974 JLINK_ReadReg(R0)
T3FB8 000:499.000 - 0.039ms returns 0x00000001
T3FB8 000:499.029 JLINK_WriteReg(R0, 0x08000000)
T3FB8 000:499.056 - 0.039ms returns 0x00
T3FB8 000:499.083 JLINK_WriteReg(R1, 0x00000800)
T3FB8 000:499.108 - 0.038ms returns 0x00
T3FB8 000:499.135 JLINK_WriteReg(R2, 0x000000FF)
T3FB8 000:499.161 - 0.038ms returns 0x00
T3FB8 000:499.187 JLINK_WriteReg(R3, 0x00000000)
T3FB8 000:499.213 - 0.038ms returns 0x00
T3FB8 000:499.280 JLINK_WriteReg(R4, 0x00000000)
T3FB8 000:499.310 - 0.042ms returns 0x00
T3FB8 000:499.336 JLINK_WriteReg(R5, 0x00000000)
T3FB8 000:499.362 - 0.038ms returns 0x00
T3FB8 000:499.388 JLINK_WriteReg(R6, 0x00000000)
T3FB8 000:499.414 - 0.038ms returns 0x00
T3FB8 000:499.441 JLINK_WriteReg(R7, 0x00000000)
T3FB8 000:499.467 - 0.038ms returns 0x00
T3FB8 000:499.493 JLINK_WriteReg(R8, 0x00000000)
T3FB8 000:499.519 - 0.038ms returns 0x00
T3FB8 000:499.545 JLINK_WriteReg(R9, 0x200001B8)
T3FB8 000:499.571 - 0.038ms returns 0x00
T3FB8 000:499.598 JLINK_WriteReg(R10, 0x00000000)
T3FB8 000:499.623 - 0.038ms returns 0x00
T3FB8 000:499.650 JLINK_WriteReg(R11, 0x00000000)
T3FB8 000:499.676 - 0.038ms returns 0x00
T3FB8 000:499.702 JLINK_WriteReg(R12, 0x00000000)
T3FB8 000:499.728 - 0.038ms returns 0x00
T3FB8 000:499.754 JLINK_WriteReg(R13 (SP), 0x20000800)
T3FB8 000:499.781 - 0.039ms returns 0x00
T3FB8 000:499.807 JLINK_WriteReg(R14, 0x20000001)
T3FB8 000:499.833 - 0.038ms returns 0x00
T3FB8 000:499.859 JLINK_WriteReg(R15 (PC), 0x200000EA)
T3FB8 000:499.885 - 0.038ms returns 0x00
T3FB8 000:499.912 JLINK_WriteReg(XPSR, 0x01000000)
T3FB8 000:499.938 - 0.042ms returns 0x00
T3FB8 000:499.968 JLINK_WriteReg(MSP, 0x20000800)
T3FB8 000:499.994 - 0.038ms returns 0x00
T3FB8 000:500.020 JLINK_WriteReg(PSP, 0x20000800)
T3FB8 000:500.046 - 0.038ms returns 0x00
T3FB8 000:500.073 JLINK_WriteReg(CFBP, 0x00000000)
T3FB8 000:500.098 - 0.038ms returns 0x00
T3FB8 000:500.126   JLINK_SetBPEx(Addr = 0x20000000, Type = 0xFFFFFFF2)
T3FB8 000:500.165 - 0.052ms returns 0x00000003
T3FB8 000:500.191 JLINK_Go()
T3FB8 000:500.223   CPU_ReadMem(4 bytes @ 0xE0001000)
T3FB8 000:503.632 - 3.462ms
T3FB8 000:503.670 JLINK_IsHalted()
T3FB8 000:504.315 - 0.665ms returns FALSE
T3FB8 000:547.949 JLINK_IsHalted()
T3FB8 000:551.190   CPU_ReadMem(2 bytes @ 0x20000000)
T3FB8 000:551.834 - 3.908ms returns TRUE
T3FB8 000:551.873 JLINK_ReadReg(R15 (PC))
T3FB8 000:551.902 - 0.044ms returns 0x20000000
T3FB8 000:551.932 JLINK_ClrBPEx(BPHandle = 0x00000003)
T3FB8 000:551.959 - 0.040ms returns 0x00
T3FB8 000:551.986 JLINK_ReadReg(R0)
T3FB8 000:552.013 - 0.039ms returns 0x00000000
T3FB8 000:552.518 JLINK_WriteReg(R0, 0x08000800)
T3FB8 000:552.556 - 0.052ms returns 0x00
T3FB8 000:552.583 JLINK_WriteReg(R1, 0x00000800)
T3FB8 000:552.610 - 0.039ms returns 0x00
T3FB8 000:552.636 JLINK_WriteReg(R2, 0x000000FF)
T3FB8 000:552.663 - 0.039ms returns 0x00
T3FB8 000:552.689 JLINK_WriteReg(R3, 0x00000000)
T3FB8 000:552.715 - 0.038ms returns 0x00
T3FB8 000:552.741 JLINK_WriteReg(R4, 0x00000000)
T3FB8 000:552.767 - 0.038ms returns 0x00
T3FB8 000:552.793 JLINK_WriteReg(R5, 0x00000000)
T3FB8 000:552.824 - 0.043ms returns 0x00
T3FB8 000:552.851 JLINK_WriteReg(R6, 0x00000000)
T3FB8 000:552.877 - 0.038ms returns 0x00
T3FB8 000:552.903 JLINK_WriteReg(R7, 0x00000000)
T3FB8 000:552.929 - 0.038ms returns 0x00
T3FB8 000:552.956 JLINK_WriteReg(R8, 0x00000000)
T3FB8 000:552.981 - 0.038ms returns 0x00
T3FB8 000:553.008 JLINK_WriteReg(R9, 0x200001B8)
T3FB8 000:553.034 - 0.038ms returns 0x00
T3FB8 000:553.060 JLINK_WriteReg(R10, 0x00000000)
T3FB8 000:553.086 - 0.038ms returns 0x00
T3FB8 000:553.113 JLINK_WriteReg(R11, 0x00000000)
T3FB8 000:553.139 - 0.039ms returns 0x00
T3FB8 000:553.165 JLINK_WriteReg(R12, 0x00000000)
T3FB8 000:553.193 - 0.041ms returns 0x00
T3FB8 000:553.220 JLINK_WriteReg(R13 (SP), 0x20000800)
T3FB8 000:553.247 - 0.039ms returns 0x00
T3FB8 000:553.273 JLINK_WriteReg(R14, 0x20000001)
T3FB8 000:553.299 - 0.039ms returns 0x00
T3FB8 000:553.326 JLINK_WriteReg(R15 (PC), 0x200000BC)
T3FB8 000:553.353 - 0.039ms returns 0x00
T3FB8 000:553.380 JLINK_WriteReg(XPSR, 0x01000000)
T3FB8 000:553.406 - 0.039ms returns 0x00
T3FB8 000:553.433 JLINK_WriteReg(MSP, 0x20000800)
T3FB8 000:553.458 - 0.038ms returns 0x00
T3FB8 000:553.485 JLINK_WriteReg(PSP, 0x20000800)
T3FB8 000:553.511 - 0.039ms returns 0x00
T3FB8 000:553.538 JLINK_WriteReg(CFBP, 0x00000000)
T3FB8 000:553.564 - 0.039ms returns 0x00
T3FB8 000:553.592   JLINK_SetBPEx(Addr = 0x20000000, Type = 0xFFFFFFF2)
T3FB8 000:553.639 - 0.060ms returns 0x00000004
T3FB8 000:553.666 JLINK_Go()
T3FB8 000:553.704   CPU_ReadMem(4 bytes @ 0xE0001000)
T3FB8 000:556.971 - 3.329ms
T3FB8 000:557.013 JLINK_IsHalted()
T3FB8 000:559.981   CPU_ReadMem(2 bytes @ 0x20000000)
T3FB8 000:560.854 - 3.859ms returns TRUE
T3FB8 000:560.888 JLINK_ReadReg(R15 (PC))
T3FB8 000:560.916 - 0.041ms returns 0x20000000
T3FB8 000:560.943 JLINK_ClrBPEx(BPHandle = 0x00000004)
T3FB8 000:560.969 - 0.039ms returns 0x00
T3FB8 000:560.996 JLINK_ReadReg(R0)
T3FB8 000:561.022 - 0.038ms returns 0x00000001
T3FB8 000:561.051 JLINK_WriteReg(R0, 0x08000800)
T3FB8 000:561.077 - 0.039ms returns 0x00
T3FB8 000:561.104 JLINK_WriteReg(R1, 0x00000800)
T3FB8 000:561.129 - 0.038ms returns 0x00
T3FB8 000:561.156 JLINK_WriteReg(R2, 0x000000FF)
T3FB8 000:561.182 - 0.038ms returns 0x00
T3FB8 000:561.208 JLINK_WriteReg(R3, 0x00000000)
T3FB8 000:561.234 - 0.038ms returns 0x00
T3FB8 000:561.260 JLINK_WriteReg(R4, 0x00000000)
T3FB8 000:561.286 - 0.038ms returns 0x00
T3FB8 000:561.313 JLINK_WriteReg(R5, 0x00000000)
T3FB8 000:561.338 - 0.038ms returns 0x00
T3FB8 000:561.365 JLINK_WriteReg(R6, 0x00000000)
T3FB8 000:561.390 - 0.038ms returns 0x00
T3FB8 000:561.417 JLINK_WriteReg(R7, 0x00000000)
T3FB8 000:561.443 - 0.038ms returns 0x00
T3FB8 000:561.469 JLINK_WriteReg(R8, 0x00000000)
T3FB8 000:561.495 - 0.038ms returns 0x00
T3FB8 000:561.522 JLINK_WriteReg(R9, 0x200001B8)
T3FB8 000:561.547 - 0.038ms returns 0x00
T3FB8 000:561.574 JLINK_WriteReg(R10, 0x00000000)
T3FB8 000:561.599 - 0.038ms returns 0x00
T3FB8 000:561.626 JLINK_WriteReg(R11, 0x00000000)
T3FB8 000:561.652 - 0.038ms returns 0x00
T3FB8 000:561.678 JLINK_WriteReg(R12, 0x00000000)
T3FB8 000:561.704 - 0.038ms returns 0x00
T3FB8 000:561.730 JLINK_WriteReg(R13 (SP), 0x20000800)
T3FB8 000:561.756 - 0.038ms returns 0x00
T3FB8 000:561.784 JLINK_WriteReg(R14, 0x20000001)
T3FB8 000:561.810 - 0.038ms returns 0x00
T3FB8 000:561.836 JLINK_WriteReg(R15 (PC), 0x200000EA)
T3FB8 000:561.862 - 0.038ms returns 0x00
T3FB8 000:561.888 JLINK_WriteReg(XPSR, 0x01000000)
T3FB8 000:561.914 - 0.038ms returns 0x00
T3FB8 000:561.941 JLINK_WriteReg(MSP, 0x20000800)
T3FB8 000:561.967 - 0.038ms returns 0x00
T3FB8 000:561.993 JLINK_WriteReg(PSP, 0x20000800)
T3FB8 000:562.019 - 0.038ms returns 0x00
T3FB8 000:562.045 JLINK_WriteReg(CFBP, 0x00000000)
T3FB8 000:562.071 - 0.038ms returns 0x00
T3FB8 000:562.098   JLINK_SetBPEx(Addr = 0x20000000, Type = 0xFFFFFFF2)
T3FB8 000:562.137 - 0.052ms returns 0x00000005
T3FB8 000:562.163 JLINK_Go()
T3FB8 000:562.194   CPU_ReadMem(4 bytes @ 0xE0001000)
T3FB8 000:565.711 - 3.567ms
T3FB8 000:565.746 JLINK_IsHalted()
T3FB8 000:566.486 - 0.754ms returns FALSE
T3FB8 000:574.896 JLINK_IsHalted()
T3FB8 000:575.754 - 0.875ms returns FALSE
T3FB8 000:577.848 JLINK_IsHalted()
T3FB8 000:578.656 - 0.822ms returns FALSE
T3FB8 000:579.915 JLINK_IsHalted()
T3FB8 000:580.837 - 0.963ms returns FALSE
T3FB8 000:582.868 JLINK_IsHalted()
T3FB8 000:583.738 - 0.893ms returns FALSE
T3FB8 000:585.794 JLINK_IsHalted()
T3FB8 000:586.799 - 1.063ms returns FALSE
T3FB8 000:588.820 JLINK_IsHalted()
T3FB8 000:592.097   CPU_ReadMem(2 bytes @ 0x20000000)
T3FB8 000:592.898 - 4.101ms returns TRUE
T3FB8 000:592.937 JLINK_ReadReg(R15 (PC))
T3FB8 000:592.967 - 0.043ms returns 0x20000000
T3FB8 000:592.995 JLINK_ClrBPEx(BPHandle = 0x00000005)
T3FB8 000:593.021 - 0.039ms returns 0x00
T3FB8 000:593.048 JLINK_ReadReg(R0)
T3FB8 000:593.075 - 0.039ms returns 0x00000000
T3FB8 000:593.533 JLINK_WriteReg(R0, 0x08001000)
T3FB8 000:593.569 - 0.049ms returns 0x00
T3FB8 000:593.597 JLINK_WriteReg(R1, 0x00000800)
T3FB8 000:593.623 - 0.039ms returns 0x00
T3FB8 000:593.650 JLINK_WriteReg(R2, 0x000000FF)
T3FB8 000:593.676 - 0.039ms returns 0x00
T3FB8 000:593.829 JLINK_WriteReg(R3, 0x00000000)
T3FB8 000:593.857 - 0.041ms returns 0x00
T3FB8 000:593.884 JLINK_WriteReg(R4, 0x00000000)
T3FB8 000:593.910 - 0.038ms returns 0x00
T3FB8 000:593.936 JLINK_WriteReg(R5, 0x00000000)
T3FB8 000:593.966 - 0.044ms returns 0x00
T3FB8 000:593.995 JLINK_WriteReg(R6, 0x00000000)
T3FB8 000:594.021 - 0.038ms returns 0x00
T3FB8 000:594.047 JLINK_WriteReg(R7, 0x00000000)
T3FB8 000:594.073 - 0.038ms returns 0x00
T3FB8 000:594.100 JLINK_WriteReg(R8, 0x00000000)
T3FB8 000:594.126 - 0.038ms returns 0x00
T3FB8 000:594.152 JLINK_WriteReg(R9, 0x200001B8)
T3FB8 000:594.178 - 0.038ms returns 0x00
T3FB8 000:594.204 JLINK_WriteReg(R10, 0x00000000)
T3FB8 000:594.231 - 0.039ms returns 0x00
T3FB8 000:594.257 JLINK_WriteReg(R11, 0x00000000)
T3FB8 000:594.283 - 0.039ms returns 0x00
T3FB8 000:594.310 JLINK_WriteReg(R12, 0x00000000)
T3FB8 000:594.335 - 0.038ms returns 0x00
T3FB8 000:594.362 JLINK_WriteReg(R13 (SP), 0x20000800)
T3FB8 000:594.389 - 0.039ms returns 0x00
T3FB8 000:594.415 JLINK_WriteReg(R14, 0x20000001)
T3FB8 000:594.441 - 0.038ms returns 0x00
T3FB8 000:594.468 JLINK_WriteReg(R15 (PC), 0x200000BC)
T3FB8 000:594.494 - 0.039ms returns 0x00
T3FB8 000:594.520 JLINK_WriteReg(XPSR, 0x01000000)
T3FB8 000:594.546 - 0.038ms returns 0x00
T3FB8 000:594.572 JLINK_WriteReg(MSP, 0x20000800)
T3FB8 000:594.598 - 0.038ms returns 0x00
T3FB8 000:594.624 JLINK_WriteReg(PSP, 0x20000800)
T3FB8 000:594.651 - 0.038ms returns 0x00
T3FB8 000:594.677 JLINK_WriteReg(CFBP, 0x00000000)
T3FB8 000:594.706 - 0.044ms returns 0x00
T3FB8 000:594.736   JLINK_SetBPEx(Addr = 0x20000000, Type = 0xFFFFFFF2)
T3FB8 000:594.775 - 0.053ms returns 0x00000006
T3FB8 000:594.802 JLINK_Go()
T3FB8 000:594.836   CPU_ReadMem(4 bytes @ 0xE0001000)
T3FB8 000:598.241 - 3.466ms
T3FB8 000:598.286 JLINK_IsHalted()
T3FB8 000:600.956   CPU_ReadMem(2 bytes @ 0x20000000)
T3FB8 000:601.627 - 3.362ms returns TRUE
T3FB8 000:601.666 JLINK_ReadReg(R15 (PC))
T3FB8 000:601.696 - 0.043ms returns 0x20000000
T3FB8 000:601.723 JLINK_ClrBPEx(BPHandle = 0x00000006)
T3FB8 000:601.749 - 0.039ms returns 0x00
T3FB8 000:601.777 JLINK_ReadReg(R0)
T3FB8 000:601.802 - 0.038ms returns 0x00000001
T3FB8 000:601.832 JLINK_WriteReg(R0, 0x08001000)
T3FB8 000:601.859 - 0.039ms returns 0x00
T3FB8 000:601.885 JLINK_WriteReg(R1, 0x00000800)
T3FB8 000:601.911 - 0.039ms returns 0x00
T3FB8 000:601.938 JLINK_WriteReg(R2, 0x000000FF)
T3FB8 000:601.964 - 0.038ms returns 0x00
T3FB8 000:601.990 JLINK_WriteReg(R3, 0x00000000)
T3FB8 000:602.016 - 0.038ms returns 0x00
T3FB8 000:602.042 JLINK_WriteReg(R4, 0x00000000)
T3FB8 000:602.068 - 0.038ms returns 0x00
T3FB8 000:602.094 JLINK_WriteReg(R5, 0x00000000)
T3FB8 000:602.120 - 0.038ms returns 0x00
T3FB8 000:602.147 JLINK_WriteReg(R6, 0x00000000)
T3FB8 000:602.173 - 0.038ms returns 0x00
T3FB8 000:602.199 JLINK_WriteReg(R7, 0x00000000)
T3FB8 000:602.225 - 0.038ms returns 0x00
T3FB8 000:602.251 JLINK_WriteReg(R8, 0x00000000)
T3FB8 000:602.277 - 0.038ms returns 0x00
T3FB8 000:602.303 JLINK_WriteReg(R9, 0x200001B8)
T3FB8 000:602.329 - 0.038ms returns 0x00
T3FB8 000:602.356 JLINK_WriteReg(R10, 0x00000000)
T3FB8 000:602.382 - 0.038ms returns 0x00
T3FB8 000:602.408 JLINK_WriteReg(R11, 0x00000000)
T3FB8 000:602.434 - 0.038ms returns 0x00
T3FB8 000:602.460 JLINK_WriteReg(R12, 0x00000000)
T3FB8 000:602.486 - 0.038ms returns 0x00
T3FB8 000:602.513 JLINK_WriteReg(R13 (SP), 0x20000800)
T3FB8 000:602.539 - 0.039ms returns 0x00
T3FB8 000:602.565 JLINK_WriteReg(R14, 0x20000001)
T3FB8 000:602.591 - 0.038ms returns 0x00
T3FB8 000:602.618 JLINK_WriteReg(R15 (PC), 0x200000EA)
T3FB8 000:602.644 - 0.038ms returns 0x00
T3FB8 000:602.671 JLINK_WriteReg(XPSR, 0x01000000)
T3FB8 000:602.699 - 0.041ms returns 0x00
T3FB8 000:602.726 JLINK_WriteReg(MSP, 0x20000800)
T3FB8 000:602.752 - 0.038ms returns 0x00
T3FB8 000:602.778 JLINK_WriteReg(PSP, 0x20000800)
T3FB8 000:602.804 - 0.038ms returns 0x00
T3FB8 000:602.831 JLINK_WriteReg(CFBP, 0x00000000)
T3FB8 000:602.857 - 0.038ms returns 0x00
T3FB8 000:602.884   JLINK_SetBPEx(Addr = 0x20000000, Type = 0xFFFFFFF2)
T3FB8 000:602.922 - 0.052ms returns 0x00000007
T3FB8 000:602.949 JLINK_Go()
T3FB8 000:602.982   CPU_ReadMem(4 bytes @ 0xE0001000)
T3FB8 000:606.592 - 3.673ms
T3FB8 000:606.642 JLINK_IsHalted()
T3FB8 000:607.327 - 0.704ms returns FALSE
T3FB8 000:611.933 JLINK_IsHalted()
T3FB8 000:612.864 - 0.960ms returns FALSE
T3FB8 000:623.998 JLINK_IsHalted()
T3FB8 000:625.228 - 1.266ms returns FALSE
T3FB8 000:626.932 JLINK_IsHalted()
T3FB8 000:628.130 - 1.234ms returns FALSE
T3FB8 000:629.667 JLINK_IsHalted()
T3FB8 000:632.786   CPU_ReadMem(2 bytes @ 0x20000000)
T3FB8 000:633.500 - 3.850ms returns TRUE
T3FB8 000:633.534 JLINK_ReadReg(R15 (PC))
T3FB8 000:633.562 - 0.041ms returns 0x20000000
T3FB8 000:633.591 JLINK_ClrBPEx(BPHandle = 0x00000007)
T3FB8 000:633.620 - 0.042ms returns 0x00
T3FB8 000:633.647 JLINK_ReadReg(R0)
T3FB8 000:633.674 - 0.039ms returns 0x00000000
T3FB8 000:634.188 JLINK_WriteReg(R0, 0x08001800)
T3FB8 000:634.227 - 0.052ms returns 0x00
T3FB8 000:634.254 JLINK_WriteReg(R1, 0x00000800)
T3FB8 000:634.280 - 0.039ms returns 0x00
T3FB8 000:634.307 JLINK_WriteReg(R2, 0x000000FF)
T3FB8 000:634.333 - 0.039ms returns 0x00
T3FB8 000:634.359 JLINK_WriteReg(R3, 0x00000000)
T3FB8 000:634.385 - 0.038ms returns 0x00
T3FB8 000:634.412 JLINK_WriteReg(R4, 0x00000000)
T3FB8 000:634.438 - 0.038ms returns 0x00
T3FB8 000:634.464 JLINK_WriteReg(R5, 0x00000000)
T3FB8 000:634.490 - 0.038ms returns 0x00
T3FB8 000:634.516 JLINK_WriteReg(R6, 0x00000000)
T3FB8 000:634.542 - 0.039ms returns 0x00
T3FB8 000:634.569 JLINK_WriteReg(R7, 0x00000000)
T3FB8 000:634.599 - 0.044ms returns 0x00
T3FB8 000:634.627 JLINK_WriteReg(R8, 0x00000000)
T3FB8 000:634.653 - 0.038ms returns 0x00
T3FB8 000:634.679 JLINK_WriteReg(R9, 0x200001B8)
T3FB8 000:634.705 - 0.038ms returns 0x00
T3FB8 000:634.732 JLINK_WriteReg(R10, 0x00000000)
T3FB8 000:634.758 - 0.038ms returns 0x00
T3FB8 000:634.784 JLINK_WriteReg(R11, 0x00000000)
T3FB8 000:634.810 - 0.038ms returns 0x00
T3FB8 000:634.837 JLINK_WriteReg(R12, 0x00000000)
T3FB8 000:634.862 - 0.038ms returns 0x00
T3FB8 000:634.889 JLINK_WriteReg(R13 (SP), 0x20000800)
T3FB8 000:634.915 - 0.039ms returns 0x00
T3FB8 000:634.942 JLINK_WriteReg(R14, 0x20000001)
T3FB8 000:634.968 - 0.038ms returns 0x00
T3FB8 000:634.994 JLINK_WriteReg(R15 (PC), 0x200000BC)
T3FB8 000:635.020 - 0.038ms returns 0x00
T3FB8 000:635.047 JLINK_WriteReg(XPSR, 0x01000000)
T3FB8 000:635.073 - 0.038ms returns 0x00
T3FB8 000:635.099 JLINK_WriteReg(MSP, 0x20000800)
T3FB8 000:635.125 - 0.038ms returns 0x00
T3FB8 000:635.151 JLINK_WriteReg(PSP, 0x20000800)
T3FB8 000:635.177 - 0.038ms returns 0x00
T3FB8 000:635.204 JLINK_WriteReg(CFBP, 0x00000000)
T3FB8 000:635.230 - 0.038ms returns 0x00
T3FB8 000:635.257   JLINK_SetBPEx(Addr = 0x20000000, Type = 0xFFFFFFF2)
T3FB8 000:635.296 - 0.052ms returns 0x00000008
T3FB8 000:635.323 JLINK_Go()
T3FB8 000:635.356   CPU_ReadMem(4 bytes @ 0xE0001000)
T3FB8 000:638.689 - 3.386ms
T3FB8 000:638.725 JLINK_IsHalted()
T3FB8 000:641.821   CPU_ReadMem(2 bytes @ 0x20000000)
T3FB8 000:642.554 - 3.869ms returns TRUE
T3FB8 000:642.613 JLINK_ReadReg(R15 (PC))
T3FB8 000:642.655 - 0.054ms returns 0x20000000
T3FB8 000:642.681 JLINK_ClrBPEx(BPHandle = 0x00000008)
T3FB8 000:642.707 - 0.038ms returns 0x00
T3FB8 000:642.733 JLINK_ReadReg(R0)
T3FB8 000:642.759 - 0.038ms returns 0x00000001
T3FB8 000:642.786 JLINK_WriteReg(R0, 0x08001800)
T3FB8 000:642.812 - 0.038ms returns 0x00
T3FB8 000:642.838 JLINK_WriteReg(R1, 0x00000800)
T3FB8 000:642.863 - 0.037ms returns 0x00
T3FB8 000:642.889 JLINK_WriteReg(R2, 0x000000FF)
T3FB8 000:642.914 - 0.037ms returns 0x00
T3FB8 000:642.939 JLINK_WriteReg(R3, 0x00000000)
T3FB8 000:642.964 - 0.037ms returns 0x00
T3FB8 000:642.990 JLINK_WriteReg(R4, 0x00000000)
T3FB8 000:643.015 - 0.037ms returns 0x00
T3FB8 000:643.041 JLINK_WriteReg(R5, 0x00000000)
T3FB8 000:643.066 - 0.037ms returns 0x00
T3FB8 000:643.092 JLINK_WriteReg(R6, 0x00000000)
T3FB8 000:643.117 - 0.037ms returns 0x00
T3FB8 000:643.142 JLINK_WriteReg(R7, 0x00000000)
T3FB8 000:643.168 - 0.037ms returns 0x00
T3FB8 000:643.193 JLINK_WriteReg(R8, 0x00000000)
T3FB8 000:643.218 - 0.037ms returns 0x00
T3FB8 000:643.244 JLINK_WriteReg(R9, 0x200001B8)
T3FB8 000:643.312 - 0.083ms returns 0x00
T3FB8 000:643.341 JLINK_WriteReg(R10, 0x00000000)
T3FB8 000:643.366 - 0.037ms returns 0x00
T3FB8 000:643.392 JLINK_WriteReg(R11, 0x00000000)
T3FB8 000:643.417 - 0.037ms returns 0x00
T3FB8 000:643.443 JLINK_WriteReg(R12, 0x00000000)
T3FB8 000:643.468 - 0.037ms returns 0x00
T3FB8 000:643.494 JLINK_WriteReg(R13 (SP), 0x20000800)
T3FB8 000:643.519 - 0.037ms returns 0x00
T3FB8 000:643.545 JLINK_WriteReg(R14, 0x20000001)
T3FB8 000:643.571 - 0.038ms returns 0x00
T3FB8 000:643.617 JLINK_WriteReg(R15 (PC), 0x200000EA)
T3FB8 000:643.643 - 0.038ms returns 0x00
T3FB8 000:643.670 JLINK_WriteReg(XPSR, 0x01000000)
T3FB8 000:643.696 - 0.038ms returns 0x00
T3FB8 000:643.722 JLINK_WriteReg(MSP, 0x20000800)
T3FB8 000:643.748 - 0.038ms returns 0x00
T3FB8 000:643.775 JLINK_WriteReg(PSP, 0x20000800)
T3FB8 000:643.800 - 0.038ms returns 0x00
T3FB8 000:643.827 JLINK_WriteReg(CFBP, 0x00000000)
T3FB8 000:643.853 - 0.038ms returns 0x00
T3FB8 000:643.880   JLINK_SetBPEx(Addr = 0x20000000, Type = 0xFFFFFFF2)
T3FB8 000:643.919 - 0.052ms returns 0x00000009
T3FB8 000:643.946 JLINK_Go()
T3FB8 000:643.977   CPU_ReadMem(4 bytes @ 0xE0001000)
T3FB8 000:647.591 - 3.691ms
T3FB8 000:647.671 JLINK_IsHalted()
T3FB8 000:648.274 - 0.620ms returns FALSE
T3FB8 000:659.679 JLINK_IsHalted()
T3FB8 000:660.416 - 0.761ms returns FALSE
T3FB8 000:666.681 JLINK_IsHalted()
T3FB8 000:667.525 - 0.866ms returns FALSE
T3FB8 000:669.770 JLINK_IsHalted()
T3FB8 000:673.684   CPU_ReadMem(2 bytes @ 0x20000000)
T3FB8 000:674.543 - 4.796ms returns TRUE
T3FB8 000:674.585 JLINK_ReadReg(R15 (PC))
T3FB8 000:674.615 - 0.043ms returns 0x20000000
T3FB8 000:674.643 JLINK_ClrBPEx(BPHandle = 0x00000009)
T3FB8 000:674.670 - 0.039ms returns 0x00
T3FB8 000:674.698 JLINK_ReadReg(R0)
T3FB8 000:674.724 - 0.039ms returns 0x00000000
T3FB8 000:676.209 JLINK_WriteReg(R0, 0x08002000)
T3FB8 000:676.254 - 0.058ms returns 0x00
T3FB8 000:676.281 JLINK_WriteReg(R1, 0x00000800)
T3FB8 000:676.308 - 0.039ms returns 0x00
T3FB8 000:676.334 JLINK_WriteReg(R2, 0x000000FF)
T3FB8 000:676.360 - 0.039ms returns 0x00
T3FB8 000:676.387 JLINK_WriteReg(R3, 0x00000000)
T3FB8 000:676.413 - 0.038ms returns 0x00
T3FB8 000:676.440 JLINK_WriteReg(R4, 0x00000000)
T3FB8 000:676.466 - 0.041ms returns 0x00
T3FB8 000:676.497 JLINK_WriteReg(R5, 0x00000000)
T3FB8 000:676.526 - 0.041ms returns 0x00
T3FB8 000:676.552 JLINK_WriteReg(R6, 0x00000000)
T3FB8 000:676.579 - 0.039ms returns 0x00
T3FB8 000:676.605 JLINK_WriteReg(R7, 0x00000000)
T3FB8 000:676.631 - 0.038ms returns 0x00
T3FB8 000:676.657 JLINK_WriteReg(R8, 0x00000000)
T3FB8 000:676.683 - 0.038ms returns 0x00
T3FB8 000:676.710 JLINK_WriteReg(R9, 0x200001B8)
T3FB8 000:676.735 - 0.038ms returns 0x00
T3FB8 000:676.762 JLINK_WriteReg(R10, 0x00000000)
T3FB8 000:676.788 - 0.039ms returns 0x00
T3FB8 000:676.814 JLINK_WriteReg(R11, 0x00000000)
T3FB8 000:676.840 - 0.038ms returns 0x00
T3FB8 000:676.867 JLINK_WriteReg(R12, 0x00000000)
T3FB8 000:676.893 - 0.038ms returns 0x00
T3FB8 000:676.919 JLINK_WriteReg(R13 (SP), 0x20000800)
T3FB8 000:676.946 - 0.039ms returns 0x00
T3FB8 000:676.972 JLINK_WriteReg(R14, 0x20000001)
T3FB8 000:676.998 - 0.038ms returns 0x00
T3FB8 000:677.024 JLINK_WriteReg(R15 (PC), 0x200000BC)
T3FB8 000:677.050 - 0.038ms returns 0x00
T3FB8 000:677.077 JLINK_WriteReg(XPSR, 0x01000000)
T3FB8 000:677.103 - 0.038ms returns 0x00
T3FB8 000:677.129 JLINK_WriteReg(MSP, 0x20000800)
T3FB8 000:677.155 - 0.038ms returns 0x00
T3FB8 000:677.181 JLINK_WriteReg(PSP, 0x20000800)
T3FB8 000:677.207 - 0.038ms returns 0x00
T3FB8 000:677.234 JLINK_WriteReg(CFBP, 0x00000000)
T3FB8 000:677.260 - 0.038ms returns 0x00
T3FB8 000:677.287   JLINK_SetBPEx(Addr = 0x20000000, Type = 0xFFFFFFF2)
T3FB8 000:677.326 - 0.052ms returns 0x0000000A
T3FB8 000:677.353 JLINK_Go()
T3FB8 000:677.387   CPU_ReadMem(4 bytes @ 0xE0001000)
T3FB8 000:680.728 - 3.398ms
T3FB8 000:680.768 JLINK_IsHalted()
T3FB8 000:683.711   CPU_ReadMem(2 bytes @ 0x20000000)
T3FB8 000:684.402 - 3.656ms returns TRUE
T3FB8 000:684.444 JLINK_ReadReg(R15 (PC))
T3FB8 000:684.479 - 0.048ms returns 0x20000000
T3FB8 000:684.507 JLINK_ClrBPEx(BPHandle = 0x0000000A)
T3FB8 000:684.533 - 0.039ms returns 0x00
T3FB8 000:684.560 JLINK_ReadReg(R0)
T3FB8 000:684.586 - 0.039ms returns 0x00000001
T3FB8 000:684.615 JLINK_WriteReg(R0, 0x08002000)
T3FB8 000:684.641 - 0.039ms returns 0x00
T3FB8 000:684.668 JLINK_WriteReg(R1, 0x00000800)
T3FB8 000:684.694 - 0.038ms returns 0x00
T3FB8 000:684.720 JLINK_WriteReg(R2, 0x000000FF)
T3FB8 000:684.746 - 0.038ms returns 0x00
T3FB8 000:684.773 JLINK_WriteReg(R3, 0x00000000)
T3FB8 000:684.799 - 0.039ms returns 0x00
T3FB8 000:684.825 JLINK_WriteReg(R4, 0x00000000)
T3FB8 000:684.851 - 0.038ms returns 0x00
T3FB8 000:684.877 JLINK_WriteReg(R5, 0x00000000)
T3FB8 000:684.903 - 0.038ms returns 0x00
T3FB8 000:684.930 JLINK_WriteReg(R6, 0x00000000)
T3FB8 000:684.956 - 0.038ms returns 0x00
T3FB8 000:684.982 JLINK_WriteReg(R7, 0x00000000)
T3FB8 000:685.008 - 0.038ms returns 0x00
T3FB8 000:685.034 JLINK_WriteReg(R8, 0x00000000)
T3FB8 000:685.060 - 0.038ms returns 0x00
T3FB8 000:685.087 JLINK_WriteReg(R9, 0x200001B8)
T3FB8 000:685.113 - 0.038ms returns 0x00
T3FB8 000:685.139 JLINK_WriteReg(R10, 0x00000000)
T3FB8 000:685.165 - 0.038ms returns 0x00
T3FB8 000:685.191 JLINK_WriteReg(R11, 0x00000000)
T3FB8 000:685.217 - 0.038ms returns 0x00
T3FB8 000:685.243 JLINK_WriteReg(R12, 0x00000000)
T3FB8 000:685.269 - 0.038ms returns 0x00
T3FB8 000:685.296 JLINK_WriteReg(R13 (SP), 0x20000800)
T3FB8 000:685.322 - 0.039ms returns 0x00
T3FB8 000:685.349 JLINK_WriteReg(R14, 0x20000001)
T3FB8 000:685.374 - 0.038ms returns 0x00
T3FB8 000:685.401 JLINK_WriteReg(R15 (PC), 0x200000EA)
T3FB8 000:685.427 - 0.038ms returns 0x00
T3FB8 000:685.454 JLINK_WriteReg(XPSR, 0x01000000)
T3FB8 000:685.480 - 0.038ms returns 0x00
T3FB8 000:685.507 JLINK_WriteReg(MSP, 0x20000800)
T3FB8 000:685.533 - 0.039ms returns 0x00
T3FB8 000:685.559 JLINK_WriteReg(PSP, 0x20000800)
T3FB8 000:685.585 - 0.038ms returns 0x00
T3FB8 000:685.612 JLINK_WriteReg(CFBP, 0x00000000)
T3FB8 000:685.637 - 0.038ms returns 0x00
T3FB8 000:685.664   JLINK_SetBPEx(Addr = 0x20000000, Type = 0xFFFFFFF2)
T3FB8 000:685.703 - 0.052ms returns 0x0000000B
T3FB8 000:685.730 JLINK_Go()
T3FB8 000:685.761   CPU_ReadMem(4 bytes @ 0xE0001000)
T3FB8 000:689.554 - 3.843ms
T3FB8 000:689.589 JLINK_IsHalted()
T3FB8 000:690.221 - 0.653ms returns FALSE
T3FB8 000:704.696 JLINK_IsHalted()
T3FB8 000:706.203 - 1.546ms returns FALSE
T3FB8 000:707.691 JLINK_IsHalted()
T3FB8 000:709.128 - 1.474ms returns FALSE
T3FB8 000:710.439 JLINK_IsHalted()
T3FB8 000:711.019 - 0.601ms returns FALSE
T3FB8 000:711.458 JLINK_ReadReg(R0)
T3FB8 000:714.191   CPU_ReadMem(2 bytes @ 0x20000000)
T3FB8 000:714.835 - 3.398ms returns 0x00000000
T3FB8 000:714.873 JLINK_ReadReg(R1)
T3FB8 000:714.900 - 0.039ms returns 0x40022000
T3FB8 000:714.927 JLINK_ReadReg(R2)
T3FB8 000:714.953 - 0.038ms returns 0x40003000
T3FB8 000:714.979 JLINK_ReadReg(R3)
T3FB8 000:715.005 - 0.038ms returns 0x00000000
T3FB8 000:715.032 JLINK_ReadReg(R4)
T3FB8 000:715.058 - 0.038ms returns 0x00000000
T3FB8 000:715.084 JLINK_ReadReg(R5)
T3FB8 000:715.110 - 0.038ms returns 0x00000000
T3FB8 000:715.136 JLINK_ReadReg(R6)
T3FB8 000:715.162 - 0.038ms returns 0x00000000
T3FB8 000:715.188 JLINK_ReadReg(R7)
T3FB8 000:715.214 - 0.038ms returns 0x00000000
T3FB8 000:715.241 JLINK_ReadReg(R8)
T3FB8 000:715.267 - 0.039ms returns 0x00000000
T3FB8 000:715.293 JLINK_ReadReg(R9)
T3FB8 000:715.319 - 0.038ms returns 0x200001B8
T3FB8 000:715.345 JLINK_ReadReg(R10)
T3FB8 000:715.372 - 0.042ms returns 0x00000000
T3FB8 000:715.404 JLINK_ReadReg(R11)
T3FB8 000:715.430 - 0.039ms returns 0x00000000
T3FB8 000:715.457 JLINK_ReadReg(R12)
T3FB8 000:715.483 - 0.038ms returns 0x00000000
T3FB8 000:715.509 JLINK_ReadReg(R13 (SP))
T3FB8 000:715.535 - 0.038ms returns 0x20000800
T3FB8 000:715.562 JLINK_ReadReg(R14)
T3FB8 000:715.588 - 0.038ms returns 0x2000006D
T3FB8 000:715.614 JLINK_ReadReg(R15 (PC))
T3FB8 000:715.643 - 0.043ms returns 0x20000000
T3FB8 000:715.672 JLINK_ReadReg(XPSR)
T3FB8 000:715.698 - 0.038ms returns 0x41000000
T3FB8 000:715.724 JLINK_ReadReg(MSP)
T3FB8 000:715.750 - 0.038ms returns 0x20000800
T3FB8 000:715.777 JLINK_ReadReg(PSP)
T3FB8 000:715.802 - 0.038ms returns 0x20000800
T3FB8 000:715.829 JLINK_ReadReg(CFBP)
T3FB8 000:715.855 - 0.038ms returns 0x00000000
T3FB8 000:715.881 JLINK_ReadReg(FPSCR)
T3FB8 000:719.981 - 4.119ms returns 0x00000000
T3FB8 000:720.017 JLINK_ReadReg(FPS0)
T3FB8 000:720.045 - 0.040ms returns 0x00000000
T3FB8 000:720.072 JLINK_ReadReg(FPS1)
T3FB8 000:720.098 - 0.039ms returns 0x00000000
T3FB8 000:720.124 JLINK_ReadReg(FPS2)
T3FB8 000:720.150 - 0.038ms returns 0x00000000
T3FB8 000:720.176 JLINK_ReadReg(FPS3)
T3FB8 000:720.202 - 0.038ms returns 0x00000000
T3FB8 000:720.229 JLINK_ReadReg(FPS4)
T3FB8 000:720.254 - 0.038ms returns 0x00000000
T3FB8 000:720.281 JLINK_ReadReg(FPS5)
T3FB8 000:720.306 - 0.038ms returns 0x00000000
T3FB8 000:720.333 JLINK_ReadReg(FPS6)
T3FB8 000:720.360 - 0.040ms returns 0x00000000
T3FB8 000:720.387 JLINK_ReadReg(FPS7)
T3FB8 000:720.412 - 0.038ms returns 0x00000000
T3FB8 000:720.439 JLINK_ReadReg(FPS8)
T3FB8 000:720.465 - 0.038ms returns 0x00000000
T3FB8 000:720.491 JLINK_ReadReg(FPS9)
T3FB8 000:720.517 - 0.038ms returns 0x00000000
T3FB8 000:720.543 JLINK_ReadReg(FPS10)
T3FB8 000:720.569 - 0.038ms returns 0x00000000
T3FB8 000:720.595 JLINK_ReadReg(FPS11)
T3FB8 000:720.621 - 0.038ms returns 0x00000000
T3FB8 000:720.647 JLINK_ReadReg(FPS12)
T3FB8 000:720.673 - 0.038ms returns 0x00000000
T3FB8 000:720.699 JLINK_ReadReg(FPS13)
T3FB8 000:720.725 - 0.038ms returns 0x00000000
T3FB8 000:720.752 JLINK_ReadReg(FPS14)
T3FB8 000:720.778 - 0.038ms returns 0x00000000
T3FB8 000:720.804 JLINK_ReadReg(FPS15)
T3FB8 000:720.829 - 0.038ms returns 0x00000000
T3FB8 000:720.856 JLINK_ReadReg(FPS16)
T3FB8 000:720.882 - 0.038ms returns 0x00000000
T3FB8 000:720.908 JLINK_ReadReg(FPS17)
T3FB8 000:720.934 - 0.038ms returns 0x00000000
T3FB8 000:720.960 JLINK_ReadReg(FPS18)
T3FB8 000:720.986 - 0.038ms returns 0x00000000
T3FB8 000:721.012 JLINK_ReadReg(FPS19)
T3FB8 000:721.038 - 0.038ms returns 0x00000000
T3FB8 000:721.065 JLINK_ReadReg(FPS20)
T3FB8 000:721.090 - 0.038ms returns 0x00000000
T3FB8 000:721.116 JLINK_ReadReg(FPS21)
T3FB8 000:721.142 - 0.038ms returns 0x00000000
T3FB8 000:721.169 JLINK_ReadReg(FPS22)
T3FB8 000:721.194 - 0.038ms returns 0x00000000
T3FB8 000:721.221 JLINK_ReadReg(FPS23)
T3FB8 000:721.246 - 0.038ms returns 0x00000000
T3FB8 000:721.273 JLINK_ReadReg(FPS24)
T3FB8 000:721.299 - 0.038ms returns 0x00000000
T3FB8 000:721.325 JLINK_ReadReg(FPS25)
T3FB8 000:721.351 - 0.042ms returns 0x00000000
T3FB8 000:721.385 JLINK_ReadReg(FPS26)
T3FB8 000:721.415 - 0.043ms returns 0x00000000
T3FB8 000:721.442 JLINK_ReadReg(FPS27)
T3FB8 000:721.468 - 0.038ms returns 0x00000000
T3FB8 000:721.494 JLINK_ReadReg(FPS28)
T3FB8 000:721.520 - 0.038ms returns 0x00000000
T3FB8 000:721.547 JLINK_ReadReg(FPS29)
T3FB8 000:721.573 - 0.038ms returns 0x00000000
T3FB8 000:721.599 JLINK_ReadReg(FPS30)
T3FB8 000:721.625 - 0.039ms returns 0x00000000
T3FB8 000:721.652 JLINK_ReadReg(FPS31)
T3FB8 000:721.678 - 0.038ms returns 0x00000000
T3FB8 000:750.606 JLINK_IsHalted()
T3FB8 000:750.659 - 0.066ms returns TRUE
T3FB8 000:750.687 JLINK_ReadReg(R15 (PC))
T3FB8 000:750.717 - 0.043ms returns 0x20000000
T3FB8 000:750.744 JLINK_ClrBPEx(BPHandle = 0x0000000B)
T3FB8 000:750.770 - 0.038ms returns 0x00
T3FB8 000:750.796 JLINK_ReadReg(R0)
T3FB8 000:750.822 - 0.038ms returns 0x00000000
T3FB8 000:751.294 JLINK_WriteReg(R0, 0x08002800)
T3FB8 000:751.362 - 0.083ms returns 0x00
T3FB8 000:751.408 JLINK_WriteReg(R1, 0x00000800)
T3FB8 000:751.435 - 0.038ms returns 0x00
T3FB8 000:751.461 JLINK_WriteReg(R2, 0x000000FF)
T3FB8 000:751.486 - 0.037ms returns 0x00
T3FB8 000:751.512 JLINK_WriteReg(R3, 0x00000000)
T3FB8 000:751.537 - 0.037ms returns 0x00
T3FB8 000:751.563 JLINK_WriteReg(R4, 0x00000000)
T3FB8 000:751.588 - 0.037ms returns 0x00
T3FB8 000:751.617 JLINK_WriteReg(R5, 0x00000000)
T3FB8 000:751.645 - 0.040ms returns 0x00
T3FB8 000:751.671 JLINK_WriteReg(R6, 0x00000000)
T3FB8 000:751.696 - 0.037ms returns 0x00
T3FB8 000:751.722 JLINK_WriteReg(R7, 0x00000000)
T3FB8 000:751.747 - 0.038ms returns 0x00
T3FB8 000:751.773 JLINK_WriteReg(R8, 0x00000000)
T3FB8 000:751.798 - 0.038ms returns 0x00
T3FB8 000:751.824 JLINK_WriteReg(R9, 0x200001B8)
T3FB8 000:751.849 - 0.037ms returns 0x00
T3FB8 000:751.875 JLINK_WriteReg(R10, 0x00000000)
T3FB8 000:751.901 - 0.037ms returns 0x00
T3FB8 000:751.926 JLINK_WriteReg(R11, 0x00000000)
T3FB8 000:751.952 - 0.038ms returns 0x00
T3FB8 000:751.978 JLINK_WriteReg(R12, 0x00000000)
T3FB8 000:752.003 - 0.038ms returns 0x00
T3FB8 000:752.029 JLINK_WriteReg(R13 (SP), 0x20000800)
T3FB8 000:752.055 - 0.038ms returns 0x00
T3FB8 000:752.081 JLINK_WriteReg(R14, 0x20000001)
T3FB8 000:752.106 - 0.037ms returns 0x00
T3FB8 000:752.132 JLINK_WriteReg(R15 (PC), 0x200000BC)
T3FB8 000:752.157 - 0.038ms returns 0x00
T3FB8 000:752.183 JLINK_WriteReg(XPSR, 0x01000000)
T3FB8 000:752.209 - 0.038ms returns 0x00
T3FB8 000:752.234 JLINK_WriteReg(MSP, 0x20000800)
T3FB8 000:752.259 - 0.037ms returns 0x00
T3FB8 000:752.285 JLINK_WriteReg(PSP, 0x20000800)
T3FB8 000:752.330 - 0.057ms returns 0x00
T3FB8 000:752.374 JLINK_WriteReg(CFBP, 0x00000000)
T3FB8 000:752.435 - 0.073ms returns 0x00
T3FB8 000:752.462   JLINK_SetBPEx(Addr = 0x20000000, Type = 0xFFFFFFF2)
T3FB8 000:752.501 - 0.051ms returns 0x0000000C
T3FB8 000:752.528 JLINK_Go()
T3FB8 000:752.562   CPU_ReadMem(4 bytes @ 0xE0001000)
T3FB8 000:756.532 - 4.046ms
T3FB8 000:756.595 JLINK_IsHalted()
T3FB8 000:759.397   CPU_ReadMem(2 bytes @ 0x20000000)
T3FB8 000:760.143 - 3.571ms returns TRUE
T3FB8 000:760.186 JLINK_ReadReg(R15 (PC))
T3FB8 000:760.216 - 0.043ms returns 0x20000000
T3FB8 000:760.244 JLINK_ClrBPEx(BPHandle = 0x0000000C)
T3FB8 000:760.273 - 0.041ms returns 0x00
T3FB8 000:760.301 JLINK_ReadReg(R0)
T3FB8 000:760.327 - 0.039ms returns 0x00000001
T3FB8 000:760.465 JLINK_WriteReg(R0, 0x08002800)
T3FB8 000:760.494 - 0.042ms returns 0x00
T3FB8 000:760.521 JLINK_WriteReg(R1, 0x00000800)
T3FB8 000:760.547 - 0.039ms returns 0x00
T3FB8 000:760.573 JLINK_WriteReg(R2, 0x000000FF)
T3FB8 000:760.599 - 0.038ms returns 0x00
T3FB8 000:760.626 JLINK_WriteReg(R3, 0x00000000)
T3FB8 000:760.652 - 0.038ms returns 0x00
T3FB8 000:760.678 JLINK_WriteReg(R4, 0x00000000)
T3FB8 000:760.704 - 0.038ms returns 0x00
T3FB8 000:760.730 JLINK_WriteReg(R5, 0x00000000)
T3FB8 000:760.756 - 0.038ms returns 0x00
T3FB8 000:760.783 JLINK_WriteReg(R6, 0x00000000)
T3FB8 000:760.808 - 0.038ms returns 0x00
T3FB8 000:760.835 JLINK_WriteReg(R7, 0x00000000)
T3FB8 000:760.861 - 0.038ms returns 0x00
T3FB8 000:760.887 JLINK_WriteReg(R8, 0x00000000)
T3FB8 000:760.913 - 0.038ms returns 0x00
T3FB8 000:760.939 JLINK_WriteReg(R9, 0x200001B8)
T3FB8 000:760.966 - 0.038ms returns 0x00
T3FB8 000:760.992 JLINK_WriteReg(R10, 0x00000000)
T3FB8 000:761.018 - 0.038ms returns 0x00
T3FB8 000:761.044 JLINK_WriteReg(R11, 0x00000000)
T3FB8 000:761.070 - 0.038ms returns 0x00
T3FB8 000:761.097 JLINK_WriteReg(R12, 0x00000000)
T3FB8 000:761.123 - 0.038ms returns 0x00
T3FB8 000:761.149 JLINK_WriteReg(R13 (SP), 0x20000800)
T3FB8 000:761.175 - 0.039ms returns 0x00
T3FB8 000:761.202 JLINK_WriteReg(R14, 0x20000001)
T3FB8 000:761.227 - 0.038ms returns 0x00
T3FB8 000:761.257 JLINK_WriteReg(R15 (PC), 0x200000EA)
T3FB8 000:761.284 - 0.040ms returns 0x00
T3FB8 000:761.311 JLINK_WriteReg(XPSR, 0x01000000)
T3FB8 000:761.337 - 0.039ms returns 0x00
T3FB8 000:761.364 JLINK_WriteReg(MSP, 0x20000800)
T3FB8 000:761.390 - 0.038ms returns 0x00
T3FB8 000:761.416 JLINK_WriteReg(PSP, 0x20000800)
T3FB8 000:761.442 - 0.038ms returns 0x00
T3FB8 000:761.468 JLINK_WriteReg(CFBP, 0x00000000)
T3FB8 000:761.494 - 0.038ms returns 0x00
T3FB8 000:761.522   JLINK_SetBPEx(Addr = 0x20000000, Type = 0xFFFFFFF2)
T3FB8 000:761.561 - 0.052ms returns 0x0000000D
T3FB8 000:761.587 JLINK_Go()
T3FB8 000:761.619   CPU_ReadMem(4 bytes @ 0xE0001000)
T3FB8 000:765.281 - 3.744ms
T3FB8 000:765.348 JLINK_IsHalted()
T3FB8 000:766.114 - 0.787ms returns FALSE
T3FB8 000:770.534 JLINK_IsHalted()
T3FB8 000:772.026 - 1.529ms returns FALSE
T3FB8 000:773.329 JLINK_IsHalted()
T3FB8 000:774.080 - 0.829ms returns FALSE
T3FB8 000:775.546 JLINK_IsHalted()
T3FB8 000:776.491 - 1.023ms returns FALSE
T3FB8 000:783.368 JLINK_IsHalted()
T3FB8 000:784.182 - 0.840ms returns FALSE
T3FB8 000:785.348 JLINK_IsHalted()
T3FB8 000:786.129 - 0.800ms returns FALSE
T3FB8 000:793.250 JLINK_IsHalted()
T3FB8 000:796.517   CPU_ReadMem(2 bytes @ 0x20000000)
T3FB8 000:797.697 - 4.486ms returns TRUE
T3FB8 000:797.754 JLINK_ReadReg(R15 (PC))
T3FB8 000:797.785 - 0.045ms returns 0x20000000
T3FB8 000:797.813 JLINK_ClrBPEx(BPHandle = 0x0000000D)
T3FB8 000:797.839 - 0.039ms returns 0x00
